
T10C4 000:125 SEGGER J-Link V6.10i Log File (0000ms, 0065ms total)
T10C4 000:125 DLL Compiled: Oct 25 2016 19:31:51 (0000ms, 0065ms total)
T10C4 000:125 Logging started @ 2017-01-05 15:06 (0000ms, 0065ms total)
T10C4 000:125 JLINK_SetWarnOutHandler(...) (0000ms, 0065ms total)
T10C4 000:125 JLINK_OpenEx(...)
Firmware: J-Link OB-SAM3U128-V2-NordicSemi compiled Nov  2 2016 11:26:40
Hardware: V1.00
S/N: 682637311WEBSRV Webserver running on local port 19080 (0009ms, 0074ms total)
T10C4 000:125   returns O.K. (0009ms, 0074ms total)
T10C4 000:134 JLINK_SetErrorOutHandler(...) (0000ms, 0074ms total)
T10C4 000:134 JLINK_ExecCommand("ProjectFile = "D:\D ел\Project\2017\2017_01\2017_01_05\FreeRTOS_fit\boards\apollo_evk_btle\examples\FreeRTOS_fit\keil\JLinkSettings.ini"", ...). C:\Program Files (x86)\SEGGER\JLink_V610i\JLinkDevices.xml evaluated successfully.Device "APOLLO512" selected.  returns 0x00 (0131ms, 0205ms total)
T10C4 000:266 JLINK_ExecCommand("Device = Apollo 512 BGA", ...). Device "APOLLO512" selected.  returns 0x00 (0004ms, 0209ms total)
T10C4 000:270 JLINK_ExecCommand("DisableConnectionTimeout", ...).   returns 0x01 (0000ms, 0209ms total)
T10C4 000:270 JLINK_GetHardwareVersion()  returns 0x2710 (0000ms, 0209ms total)
T10C4 000:270 JLINK_GetDLLVersion()  returns 61009 (0000ms, 0209ms total)
T10C4 000:270 JLINK_GetFirmwareString(...) (0000ms, 0209ms total)
T10C4 000:277 JLINK_GetDLLVersion()  returns 61009 (0000ms, 0209ms total)
T10C4 000:277 JLINK_GetCompileDateTime() (0000ms, 0209ms total)
T10C4 000:279 JLINK_GetFirmwareString(...) (0000ms, 0209ms total)
T10C4 000:282 JLINK_GetHardwareVersion()  returns 0x2710 (0000ms, 0209ms total)
T10C4 000:288 JLINK_TIF_Select(JLINKARM_TIF_SWD)  returns 0x00 (0001ms, 0210ms total)
T10C4 000:289 JLINK_SetSpeed(5000) (0000ms, 0210ms total)
T10C4 000:289 JLINK_GetId() >0x108 TIF>Found SWD-DP with ID 0x2BA01477 >0x0D TIF> >0x28 TIF> >0x0D TIF> >0x28 TIF> >0x0D TIF> >0x28 TIF> >0x0D TIF> >0x28 TIF> >0x0D TIF> >0x21 TIF> >0x0D TIF> >0x28 TIF> >0x0D TIF> >0x28 TIF> >0x0D TIF> >0x21 TIF> >0x0D TIF> >0x21 TIF> >0x0D TIF> >0x21 TIF>AP-IDR: 0x24770011, Type: AHB-AP >0x0D TIF> >0x28 TIF> >0x0D TIF> >0x28 TIF> >0x0D TIF> >0x28 TIF> >0x0D TIF> >0x21 TIF> >0x0D TIF> >0x21 TIF> >0x0D TIF> >0x28 TIF> >0x0D TIF> >0x21 TIF> >0x0D TIF> >0x21 TIF>
Found Cortex-M4 r0p1, Little endian. -- CPU_ReadMem(4 bytes @ 0xE000EDF0) -- CPU_WriteMem(4 bytes @ 0xE000EDF0) -- CPU_ReadMem(4 bytes @ 0xE0002000)FPUnit: 6 code (BP) slots and 2 literal slots -- CPU_ReadMem(4 bytes @ 0xE000EDFC) -- CPU_WriteMem(4 bytes @ 0xE000EDFC) -- CPU_ReadMem(4 bytes @ 0xE0001000) -- CPU_WriteMem(4 bytes @ 0xE0001000) -- CPU_ReadMem(4 bytes @ 0xE000ED88) -- CPU_WriteMem(4 bytes @ 0xE000ED88) -- CPU_ReadMem(4 bytes @ 0xE000ED88) -- CPU_WriteMem(4 bytes @ 0xE000ED88)
CoreSight components:ROMTbl 0 @ E00FF000 -- CPU_ReadMem(16 bytes @ 0xE00FF000) -- CPU_ReadMem(16 bytes @ 0xE000EFF0) -- CPU_ReadMem(16 bytes @ 0xE000EFE0)ROMTbl 0 [0]: FFF0F000, CID: B105E00D, PID: 000BB00C SCS -- CPU_ReadMem(16 bytes @ 0xE0001FF0) -- CPU_ReadMem(16 bytes @ 0xE0001FE0)ROMTbl 0 [1]: FFF02000, CID: B105E00D, PID: 003BB002 DWT -- CPU_ReadMem(16 bytes @ 0xE0002FF0) -- CPU_ReadMem(16 bytes @ 0xE0002FE0)ROMTbl 0 [2]: FFF03000, CID: B105E00D, PID: 002BB003 FPB
 -- CPU_ReadMem(16 bytes @ 0xE0000FF0) -- CPU_ReadMem(16 bytes @ 0xE0000FE0)ROMTbl 0 [3]: FFF01000, CID: B105E00D, PID: 003BB001 ITM -- CPU_ReadMem(16 bytes @ 0xE00FF010) -- CPU_ReadMem(16 bytes @ 0xE0040FF0) -- CPU_ReadMem(16 bytes @ 0xE0040FE0)ROMTbl 0 [4]: FFF41000, CID: B105900D, PID: 000BB9A1 TPIU >0x0D TIF> >0x21 TIF>  returns 0x2BA01477 (0044ms, 0254ms total)
T10C4 000:333 JLINK_GetDLLVersion()  returns 61009 (0000ms, 0254ms total)
T10C4 000:333 JLINK_CORE_GetFound()  returns 0xE0000FF (0000ms, 0254ms total)
T10C4 000:333 JLINK_GetDebugInfo(0x100) -- Value=0xE00FF000  returns 0x00 (0000ms, 0254ms total)
T10C4 000:335 JLINK_GetDebugInfo(0x100) -- Value=0xE00FF000  returns 0x00 (0000ms, 0254ms total)
T10C4 000:335 JLINK_GetDebugInfo(0x101) -- Value=0x00000000  returns 0x00 (0000ms, 0254ms total)
T10C4 000:335 JLINK_ReadMem (0xE0041FF0, 0x0010 Bytes, ...) -- CPU is running -- CPU_ReadMem(16 bytes @ 0xE0041FF0) - Data: 00 00 00 00 00 00 00 00 00 00 00 00 00 00 00 00  returns 0x00 (0001ms, 0255ms total)
T10C4 000:336 JLINK_GetDebugInfo(0x102) -- Value=0x00000000  returns 0x00 (0000ms, 0255ms total)
T10C4 000:336 JLINK_GetDebugInfo(0x103) -- Value=0xE0040000  returns 0x00 (0000ms, 0255ms total)
T10C4 000:336 JLINK_GetDebugInfo(0x104) -- Value=0xE0000000  returns 0x00 (0000ms, 0255ms total)
T10C4 000:336 JLINK_GetDebugInfo(0x105) -- Value=0xE0001000  returns 0x00 (0000ms, 0255ms total)
T10C4 000:336 JLINK_GetDebugInfo(0x106) -- Value=0xE0002000  returns 0x00 (0000ms, 0255ms total)
T10C4 000:336 JLINK_GetDebugInfo(0x107) -- Value=0xE000E000  returns 0x00 (0000ms, 0255ms total)
T10C4 000:336 JLINK_GetDebugInfo(0x10C) -- Value=0xE000EDF0  returns 0x00 (0000ms, 0255ms total)
T10C4 000:336 JLINK_ReadMemU32(0xE000EF40, 0x0001 Items, ...) -- CPU is running -- CPU_ReadMem(4 bytes @ 0xE000EF40) - Data: 21 00 11 10  returns 0x01 (0000ms, 0255ms total)
T10C4 000:336 JLINK_ReadMemU32(0xE000EF44, 0x0001 Items, ...) -- CPU is running -- CPU_ReadMem(4 bytes @ 0xE000EF44) - Data: 11 00 00 11  returns 0x01 (0001ms, 0256ms total)
T10C4 000:337 JLINK_ReadMemU32(0xE000ED00, 0x0001 Items, ...) -- CPU is running -- CPU_ReadMem(4 bytes @ 0xE000ED00) - Data: 41 C2 0F 41  returns 0x01 (0000ms, 0256ms total)
T10C4 000:337 JLINK_SetResetType(JLINKARM_RESET_TYPE_NORMAL)  returns JLINKARM_RESET_TYPE_NORMAL (0000ms, 0256ms total)
T10C4 000:337 JLINK_Reset() -- CPU is running -- CPU_WriteMem(4 bytes @ 0xE000EDF0) -- CPU is running -- CPU_WriteMem(4 bytes @ 0xE000EDFC) >0x35 TIF> -- CPU is running -- CPU_WriteMem(4 bytes @ 0xE000ED0C) -- CPU is running -- CPU_ReadMem(4 bytes @ 0xE000EDF0) -- CPU is running -- CPU_ReadMem(4 bytes @ 0xE000EDF0) -- CPU is running -- CPU_ReadMem(4 bytes @ 0xE000EDF0) -- CPU is running -- CPU_ReadMem(4 bytes @ 0xE000EDF0) -- CPU is running -- CPU_ReadMem(4 bytes @ 0xE000EDF0) -- CPU is running
 -- CPU_ReadMem(4 bytes @ 0xE000EDF0) -- CPU is running -- CPU_ReadMem(4 bytes @ 0xE000EDF0) -- CPU is running -- CPU_ReadMem(4 bytes @ 0xE000EDF0) -- CPU is running -- CPU_ReadMem(4 bytes @ 0xE000EDF0) -- CPU is running -- CPU_ReadMem(4 bytes @ 0xE000EDF0) -- CPU is running -- CPU_ReadMem(4 bytes @ 0xE000EDF0) -- CPU is running -- CPU_ReadMem(4 bytes @ 0xE000EDF0) -- CPU is running -- CPU_ReadMem(4 bytes @ 0xE000EDF0) -- CPU is running -- CPU_ReadMem(4 bytes @ 0xE000EDF0) -- CPU is running
 -- CPU_ReadMem(4 bytes @ 0xE000EDF0) -- CPU is running -- CPU_ReadMem(4 bytes @ 0xE000EDF0) -- CPU is running -- CPU_ReadMem(4 bytes @ 0xE000EDF0) -- CPU is running -- CPU_ReadMem(4 bytes @ 0xE000EDF0) -- CPU is running -- CPU_ReadMem(4 bytes @ 0xE000EDF0) -- CPU is running -- CPU_ReadMem(4 bytes @ 0xE000EDF0) -- CPU is running -- CPU_ReadMem(4 bytes @ 0xE000EDF0) -- CPU is running -- CPU_ReadMem(4 bytes @ 0xE000EDF0) -- CPU is running -- CPU_ReadMem(4 bytes @ 0xE000EDF0) -- CPU is running
 -- CPU_ReadMem(4 bytes @ 0xE000EDF0) -- CPU is running -- CPU_ReadMem(4 bytes @ 0xE000EDF0) -- CPU is running -- CPU_ReadMem(4 bytes @ 0xE000EDF0) -- CPU is running -- CPU_ReadMem(4 bytes @ 0xE000EDF0) -- CPU is running -- CPU_ReadMem(4 bytes @ 0xE000EDF0) -- CPU is running -- CPU_ReadMem(4 bytes @ 0xE000EDF0) -- CPU is running -- CPU_ReadMem(4 bytes @ 0xE000EDF0) -- CPU is running -- CPU_ReadMem(4 bytes @ 0xE000EDF0) -- CPU is running -- CPU_ReadMem(4 bytes @ 0xE000EDF0) -- CPU is running
 -- CPU_ReadMem(4 bytes @ 0xE000EDF0) -- CPU is running -- CPU_ReadMem(4 bytes @ 0xE000EDF0) -- CPU is running -- CPU_ReadMem(4 bytes @ 0xE000EDF0) -- CPU is running -- CPU_ReadMem(4 bytes @ 0xE000EDF0) -- CPU is running -- CPU_ReadMem(4 bytes @ 0xE000EDF0) -- CPU is running -- CPU_ReadMem(4 bytes @ 0xE000EDF0) -- CPU is running -- CPU_ReadMem(4 bytes @ 0xE000EDF0) -- CPU is running -- CPU_ReadMem(4 bytes @ 0xE000EDF0) -- CPU is running -- CPU_ReadMem(4 bytes @ 0xE000EDF0) -- CPU is running
 -- CPU_ReadMem(4 bytes @ 0xE000EDF0) -- CPU is running -- CPU_ReadMem(4 bytes @ 0xE000EDF0) -- CPU is running -- CPU_ReadMem(4 bytes @ 0xE000EDF0) -- CPU is running -- CPU_ReadMem(4 bytes @ 0xE000EDF0) -- CPU is running -- CPU_ReadMem(4 bytes @ 0xE000EDF0) -- CPU is running -- CPU_ReadMem(4 bytes @ 0xE000EDF0) -- CPU is running -- CPU_ReadMem(4 bytes @ 0xE000EDF0) -- CPU is running -- CPU_ReadMem(4 bytes @ 0xE000EDF0) -- CPU is running -- CPU_ReadMem(4 bytes @ 0xE000EDF0) -- CPU is running
 -- CPU_ReadMem(4 bytes @ 0xE000EDF0) -- CPU is running -- CPU_ReadMem(4 bytes @ 0xE000EDF0) -- CPU is running -- CPU_ReadMem(4 bytes @ 0xE000EDF0) -- CPU is running -- CPU_ReadMem(4 bytes @ 0xE000EDF0) -- CPU is running -- CPU_ReadMem(4 bytes @ 0xE000EDF0) -- CPU is running -- CPU_ReadMem(4 bytes @ 0xE000EDF0) -- CPU is running -- CPU_ReadMem(4 bytes @ 0xE000EDF0) -- CPU is running -- CPU_ReadMem(4 bytes @ 0xE000EDF0) -- CPU is running -- CPU_ReadMem(4 bytes @ 0xE000EDF0) -- CPU is running
 -- CPU_ReadMem(4 bytes @ 0xE000EDF0) -- CPU is running -- CPU_ReadMem(4 bytes @ 0xE000EDF0) -- CPU is running -- CPU_ReadMem(4 bytes @ 0xE000EDF0) -- CPU is running -- CPU_ReadMem(4 bytes @ 0xE000EDF0) -- CPU is running -- CPU_ReadMem(4 bytes @ 0xE000EDF0) -- CPU is running -- CPU_ReadMem(4 bytes @ 0xE000EDF0) -- CPU is running -- CPU_ReadMem(4 bytes @ 0xE000EDF0) -- CPU is running -- CPU_ReadMem(4 bytes @ 0xE000EDF0) -- CPU is running -- CPU_ReadMem(4 bytes @ 0xE000EDF0) -- CPU is running
 -- CPU_ReadMem(4 bytes @ 0xE000EDF0) -- CPU is running -- CPU_ReadMem(4 bytes @ 0xE000EDF0) -- CPU is running -- CPU_ReadMem(4 bytes @ 0xE000EDF0) -- CPU is running -- CPU_ReadMem(4 bytes @ 0xE000EDF0) -- CPU is running -- CPU_ReadMem(4 bytes @ 0xE000EDF0) -- CPU is running -- CPU_ReadMem(4 bytes @ 0xE000EDF0) -- CPU is running -- CPU_ReadMem(4 bytes @ 0xE000EDF0) -- CPU is running -- CPU_ReadMem(4 bytes @ 0xE000EDF0) -- CPU is running -- CPU_ReadMem(4 bytes @ 0xE000EDF0) -- CPU is running
 -- CPU_ReadMem(4 bytes @ 0xE000EDF0) -- CPU is running -- CPU_ReadMem(4 bytes @ 0xE000EDF0) -- CPU is running -- CPU_ReadMem(4 bytes @ 0xE000EDF0) -- CPU is running -- CPU_ReadMem(4 bytes @ 0xE000EDF0) -- CPU is running -- CPU_ReadMem(4 bytes @ 0xE000EDF0) -- CPU is running -- CPU_ReadMem(4 bytes @ 0xE000EDF0) -- CPU is running -- CPU_ReadMem(4 bytes @ 0xE000EDF0) -- CPU is running -- CPU_ReadMem(4 bytes @ 0xE000EDF0) -- CPU is running -- CPU_ReadMem(4 bytes @ 0xE000EDF0) -- CPU is running
 -- CPU_ReadMem(4 bytes @ 0xE000EDF0) -- CPU is running -- CPU_ReadMem(4 bytes @ 0xE000EDF0) -- CPU is running -- CPU_ReadMem(4 bytes @ 0xE000EDF0) -- CPU is running -- CPU_ReadMem(4 bytes @ 0xE000EDF0) -- CPU is running -- CPU_ReadMem(4 bytes @ 0xE000EDF0) -- CPU is running -- CPU_ReadMem(4 bytes @ 0xE000EDF0) -- CPU is running -- CPU_ReadMem(4 bytes @ 0xE000EDF0) -- CPU is running -- CPU_ReadMem(4 bytes @ 0xE000EDF0) -- CPU is running -- CPU_ReadMem(4 bytes @ 0xE000EDF0) -- CPU is running
 -- CPU_ReadMem(4 bytes @ 0xE000EDF0) -- CPU is running -- CPU_ReadMem(4 bytes @ 0xE000EDF0) -- CPU is running -- CPU_ReadMem(4 bytes @ 0xE000EDF0) -- CPU is running -- CPU_ReadMem(4 bytes @ 0xE000EDF0) -- CPU is running -- CPU_ReadMem(4 bytes @ 0xE000EDF0) -- CPU is running -- CPU_ReadMem(4 bytes @ 0xE000EDF0) -- CPU is running -- CPU_ReadMem(4 bytes @ 0xE000EDF0) -- CPU is running -- CPU_ReadMem(4 bytes @ 0xE000EDF0) -- CPU is running -- CPU_ReadMem(4 bytes @ 0xE000EDF0) -- CPU is running
 -- CPU_ReadMem(4 bytes @ 0xE000EDF0) -- CPU is running -- CPU_ReadMem(4 bytes @ 0xE000EDF0) -- CPU is running -- CPU_ReadMem(4 bytes @ 0xE000EDF0) -- CPU is running -- CPU_ReadMem(4 bytes @ 0xE000EDF0) -- CPU is running -- CPU_ReadMem(4 bytes @ 0xE000EDF0) -- CPU is running -- CPU_ReadMem(4 bytes @ 0xE000EDF0) -- CPU is running -- CPU_ReadMem(4 bytes @ 0xE000EDF0) -- CPU is running -- CPU_ReadMem(4 bytes @ 0xE000EDF0) -- CPU is running -- CPU_ReadMem(4 bytes @ 0xE000EDF0) -- CPU is running
 -- CPU_ReadMem(4 bytes @ 0xE000EDF0) -- CPU is running -- CPU_ReadMem(4 bytes @ 0xE000EDF0) -- CPU is running -- CPU_WriteMem(4 bytes @ 0xE000EDF0) -- CPU is running -- CPU_WriteMem(4 bytes @ 0xE000EDFC) -- CPU is running -- CPU_ReadMem(4 bytes @ 0xE000EDF0) -- CPU_WriteMem(4 bytes @ 0xE0002000) -- CPU_ReadMem(4 bytes @ 0xE000EDFC) -- CPU_ReadMem(4 bytes @ 0xE0001000) (0073ms, 0329ms total)
T10C4 000:410 JLINK_Halt()  returns 0x00 (0000ms, 0329ms total)
T10C4 000:410 JLINK_IsHalted()  returns TRUE (0000ms, 0329ms total)
T10C4 000:410 JLINK_ReadMemU32(0xE000EDF0, 0x0001 Items, ...) -- CPU_ReadMem(4 bytes @ 0xE000EDF0) - Data: 03 00 03 00  returns 0x01 (0001ms, 0330ms total)
T10C4 000:411 JLINK_WriteU32(0xE000EDF0, 0xA05F0003) -- CPU_WriteMem(4 bytes @ 0xE000EDF0)  returns 0x00 (0001ms, 0331ms total)
T10C4 000:412 JLINK_WriteU32(0xE000EDFC, 0x01000000) -- CPU_WriteMem(4 bytes @ 0xE000EDFC)  returns 0x00 (0001ms, 0332ms total)
T10C4 000:432 JLINK_GetHWStatus(...)  returns 0x00 (0001ms, 0333ms total)
T10C4 000:443 JLINK_GetNumBPUnits(Type = 0xFFFFFF00)  returns 0x06 (0000ms, 0333ms total)
T10C4 000:443 JLINK_GetNumBPUnits(Type = 0xF0)  returns 0x2000 (0000ms, 0333ms total)
T10C4 000:443 JLINK_GetNumWPUnits()  returns 0x04 (0000ms, 0333ms total)
T10C4 000:453 JLINK_GetSpeed()  returns 0x3E8 (0000ms, 0333ms total)
T10C4 000:458 JLINK_ReadMemU32(0xE000E004, 0x0001 Items, ...) -- CPU_ReadMem(4 bytes @ 0xE000E004) - Data: 00 00 00 00  returns 0x01 (0001ms, 0334ms total)
T10C4 000:459 JLINK_ReadMemU32(0xE000E004, 0x0001 Items, ...) -- CPU_ReadMem(4 bytes @ 0xE000E004) - Data: 00 00 00 00  returns 0x01 (0001ms, 0335ms total)
T10C4 000:460 JLINK_WriteMem(0xE0001000, 0x001C Bytes, ...) - Data: 01 00 00 00 00 00 00 00 00 00 00 00 00 00 00 00 ... -- CPU_WriteMem(28 bytes @ 0xE0001000)  returns 0x1C (0001ms, 0336ms total)
T10C4 000:461 JLINK_ReadMem (0xE0001000, 0x001C Bytes, ...) -- CPU_ReadMem(28 bytes @ 0xE0001000) - Data: 01 00 00 40 00 00 00 00 00 00 00 00 00 00 00 00 ...  returns 0x00 (0001ms, 0337ms total)
T10C4 000:462 JLINK_Halt()  returns 0x00 (0000ms, 0337ms total)
T10C4 000:462 JLINK_IsHalted()  returns TRUE (0000ms, 0337ms total)
T10C4 000:532 JLINK_WriteMem(0x10000000, 0x00D4 Bytes, ...) - Data: 00 BE 0A E0 0D 78 2D 06 68 40 08 24 40 00 00 D3 ... -- CPU_WriteMem(212 bytes @ 0x10000000)  returns 0xD4 (0005ms, 0342ms total)
T10C4 000:537 JLINK_WriteReg(R0, 0x00000000)  returns 0x00 (0001ms, 0343ms total)
T10C4 000:538 JLINK_WriteReg(R1, 0x016E3600)  returns 0x00 (0000ms, 0343ms total)
T10C4 000:538 JLINK_WriteReg(R2, 0x00000001)  returns 0x00 (0000ms, 0343ms total)
T10C4 000:538 JLINK_WriteReg(R3, 0x00000000)  returns 0x00 (0000ms, 0343ms total)
T10C4 000:538 JLINK_WriteReg(R4, 0x00000000)  returns 0x00 (0000ms, 0343ms total)
T10C4 000:538 JLINK_WriteReg(R5, 0x00000000)  returns 0x00 (0000ms, 0343ms total)
T10C4 000:538 JLINK_WriteReg(R6, 0x00000000)  returns 0x00 (0000ms, 0343ms total)
T10C4 000:538 JLINK_WriteReg(R7, 0x00000000)  returns 0x00 (0000ms, 0343ms total)
T10C4 000:538 JLINK_WriteReg(R8, 0x00000000)  returns 0x00 (0000ms, 0343ms total)
T10C4 000:538 JLINK_WriteReg(R9, 0x100000B0)  returns 0x00 (0000ms, 0343ms total)
T10C4 000:538 JLINK_WriteReg(R10, 0x00000000)  returns 0x00 (0000ms, 0343ms total)
T10C4 000:538 JLINK_WriteReg(R11, 0x00000000)  returns 0x00 (0000ms, 0343ms total)
T10C4 000:538 JLINK_WriteReg(R12, 0x00000000)  returns 0x00 (0000ms, 0343ms total)
T10C4 000:538 JLINK_WriteReg(R13 (SP), 0x10004000)  returns 0x00 (0000ms, 0343ms total)
T10C4 000:538 JLINK_WriteReg(R14, 0x10000001)  returns 0x00 (0000ms, 0343ms total)
T10C4 000:538 JLINK_WriteReg(R15 (PC), 0x10000038)  returns 0x00 (0000ms, 0343ms total)
T10C4 000:538 JLINK_WriteReg(XPSR, 0x01000000)  returns 0x00 (0000ms, 0343ms total)
T10C4 000:538 JLINK_WriteReg(MSP, 0x10004000)  returns 0x00 (0000ms, 0343ms total)
T10C4 000:538 JLINK_WriteReg(PSP, 0x10004000)  returns 0x00 (0000ms, 0343ms total)
T10C4 000:538 JLINK_WriteReg(CFBP, 0x00000000)  returns 0x00 (0000ms, 0343ms total)
T10C4 000:538 JLINK_SetBPEx(Addr = 0x10000000, Type = 0xFFFFFFF2)  returns 0x00000001 (0000ms, 0343ms total)
T10C4 000:538 JLINK_Go() -- CPU_WriteMem(4 bytes @ 0xE0002000) -- CPU_ReadMem(4 bytes @ 0xE0001000) -- CPU_WriteMem(4 bytes @ 0xE0002008) -- CPU_WriteMem(4 bytes @ 0xE000200C) -- CPU_WriteMem(4 bytes @ 0xE0002010) -- CPU_WriteMem(4 bytes @ 0xE0002014) -- CPU_WriteMem(4 bytes @ 0xE0002018) -- CPU_WriteMem(4 bytes @ 0xE000201C) -- CPU_WriteMem(4 bytes @ 0xE0001004) (0009ms, 0352ms total)
T10C4 000:547 JLINK_IsHalted()  returns TRUE (0006ms, 0358ms total)
T10C4 000:553 JLINK_ReadReg(R15 (PC))  returns 0x10000000 (0000ms, 0352ms total)
T10C4 000:553 JLINK_ClrBPEx(BPHandle = 0x00000001)  returns 0x00 (0000ms, 0352ms total)
T10C4 000:553 JLINK_ReadReg(R0)  returns 0x00000000 (0000ms, 0352ms total)
T10C4 000:554 JLINK_WriteReg(R0, 0x00000000)  returns 0x00 (0000ms, 0352ms total)
T10C4 000:555 JLINK_WriteReg(R1, 0x00000800)  returns 0x00 (0000ms, 0352ms total)
T10C4 000:555 JLINK_WriteReg(R2, 0x000000FF)  returns 0x00 (0000ms, 0352ms total)
T10C4 000:555 JLINK_WriteReg(R3, 0x00000000)  returns 0x00 (0000ms, 0352ms total)
T10C4 000:555 JLINK_WriteReg(R4, 0x00000000)  returns 0x00 (0000ms, 0352ms total)
T10C4 000:555 JLINK_WriteReg(R5, 0x00000000)  returns 0x00 (0000ms, 0352ms total)
T10C4 000:555 JLINK_WriteReg(R6, 0x00000000)  returns 0x00 (0000ms, 0352ms total)
T10C4 000:555 JLINK_WriteReg(R7, 0x00000000)  returns 0x00 (0000ms, 0352ms total)
T10C4 000:555 JLINK_WriteReg(R8, 0x00000000)  returns 0x00 (0000ms, 0352ms total)
T10C4 000:555 JLINK_WriteReg(R9, 0x100000B0)  returns 0x00 (0000ms, 0352ms total)
T10C4 000:555 JLINK_WriteReg(R10, 0x00000000)  returns 0x00 (0000ms, 0352ms total)
T10C4 000:555 JLINK_WriteReg(R11, 0x00000000)  returns 0x00 (0000ms, 0352ms total)
T10C4 000:555 JLINK_WriteReg(R12, 0x00000000)  returns 0x00 (0000ms, 0352ms total)
T10C4 000:555 JLINK_WriteReg(R13 (SP), 0x10004000)  returns 0x00 (0000ms, 0352ms total)
T10C4 000:555 JLINK_WriteReg(R14, 0x10000001)  returns 0x00 (0000ms, 0352ms total)
T10C4 000:555 JLINK_WriteReg(R15 (PC), 0x10000020)  returns 0x00 (0000ms, 0352ms total)
T10C4 000:555 JLINK_WriteReg(XPSR, 0x01000000)  returns 0x00 (0000ms, 0352ms total)
T10C4 000:555 JLINK_WriteReg(MSP, 0x10004000)  returns 0x00 (0000ms, 0352ms total)
T10C4 000:555 JLINK_WriteReg(PSP, 0x10004000)  returns 0x00 (0000ms, 0352ms total)
T10C4 000:555 JLINK_WriteReg(CFBP, 0x00000000)  returns 0x00 (0000ms, 0352ms total)
T10C4 000:555 JLINK_SetBPEx(Addr = 0x10000000, Type = 0xFFFFFFF2)  returns 0x00000002 (0000ms, 0352ms total)
T10C4 000:555 JLINK_Go() -- CPU_WriteMem(4 bytes @ 0xE0002000) -- CPU_ReadMem(4 bytes @ 0xE0001000) (0005ms, 0357ms total)
T10C4 000:560 JLINK_IsHalted()  returns TRUE (0007ms, 0364ms total)
T10C4 000:567 JLINK_ReadReg(R15 (PC))  returns 0x10000000 (0000ms, 0357ms total)
T10C4 000:567 JLINK_ClrBPEx(BPHandle = 0x00000002)  returns 0x00 (0000ms, 0357ms total)
T10C4 000:567 JLINK_ReadReg(R0)  returns 0x00000001 (0000ms, 0357ms total)
T10C4 000:567 JLINK_WriteReg(R0, 0x00000000)  returns 0x00 (0000ms, 0357ms total)
T10C4 000:567 JLINK_WriteReg(R1, 0x00000800)  returns 0x00 (0000ms, 0357ms total)
T10C4 000:567 JLINK_WriteReg(R2, 0x000000FF)  returns 0x00 (0000ms, 0357ms total)
T10C4 000:567 JLINK_WriteReg(R3, 0x00000000)  returns 0x00 (0000ms, 0357ms total)
T10C4 000:567 JLINK_WriteReg(R4, 0x00000000)  returns 0x00 (0000ms, 0357ms total)
T10C4 000:567 JLINK_WriteReg(R5, 0x00000000)  returns 0x00 (0000ms, 0357ms total)
T10C4 000:567 JLINK_WriteReg(R6, 0x00000000)  returns 0x00 (0000ms, 0357ms total)
T10C4 000:567 JLINK_WriteReg(R7, 0x00000000)  returns 0x00 (0000ms, 0357ms total)
T10C4 000:567 JLINK_WriteReg(R8, 0x00000000)  returns 0x00 (0000ms, 0357ms total)
T10C4 000:567 JLINK_WriteReg(R9, 0x100000B0)  returns 0x00 (0000ms, 0357ms total)
T10C4 000:567 JLINK_WriteReg(R10, 0x00000000)  returns 0x00 (0000ms, 0357ms total)
T10C4 000:567 JLINK_WriteReg(R11, 0x00000000)  returns 0x00 (0001ms, 0358ms total)
T10C4 000:568 JLINK_WriteReg(R12, 0x00000000)  returns 0x00 (0000ms, 0358ms total)
T10C4 000:568 JLINK_WriteReg(R13 (SP), 0x10004000)  returns 0x00 (0000ms, 0358ms total)
T10C4 000:568 JLINK_WriteReg(R14, 0x10000001)  returns 0x00 (0000ms, 0358ms total)
T10C4 000:568 JLINK_WriteReg(R15 (PC), 0x1000005E)  returns 0x00 (0000ms, 0358ms total)
T10C4 000:568 JLINK_WriteReg(XPSR, 0x01000000)  returns 0x00 (0000ms, 0358ms total)
T10C4 000:568 JLINK_WriteReg(MSP, 0x10004000)  returns 0x00 (0000ms, 0358ms total)
T10C4 000:568 JLINK_WriteReg(PSP, 0x10004000)  returns 0x00 (0000ms, 0358ms total)
T10C4 000:568 JLINK_WriteReg(CFBP, 0x00000000)  returns 0x00 (0000ms, 0358ms total)
T10C4 000:568 JLINK_SetBPEx(Addr = 0x10000000, Type = 0xFFFFFFF2)  returns 0x00000003 (0000ms, 0358ms total)
T10C4 000:568 JLINK_Go() -- CPU_WriteMem(4 bytes @ 0xE0002000) -- CPU_ReadMem(4 bytes @ 0xE0001000) (0004ms, 0362ms total)
T10C4 000:572 JLINK_IsHalted()  returns FALSE (0001ms, 0363ms total)
T10C4 000:650 JLINK_IsHalted()  returns TRUE (0006ms, 0368ms total)
T10C4 000:656 JLINK_ReadReg(R15 (PC))  returns 0x10000000 (0000ms, 0362ms total)
T10C4 000:656 JLINK_ClrBPEx(BPHandle = 0x00000003)  returns 0x00 (0000ms, 0362ms total)
T10C4 000:656 JLINK_ReadReg(R0)  returns 0x00000000 (0000ms, 0362ms total)
T10C4 000:656 JLINK_WriteReg(R0, 0x00000800)  returns 0x00 (0000ms, 0362ms total)
T10C4 000:656 JLINK_WriteReg(R1, 0x00000800)  returns 0x00 (0000ms, 0362ms total)
T10C4 000:656 JLINK_WriteReg(R2, 0x000000FF)  returns 0x00 (0000ms, 0362ms total)
T10C4 000:656 JLINK_WriteReg(R3, 0x00000000)  returns 0x00 (0000ms, 0362ms total)
T10C4 000:657 JLINK_WriteReg(R4, 0x00000000)  returns 0x00 (0000ms, 0362ms total)
T10C4 000:657 JLINK_WriteReg(R5, 0x00000000)  returns 0x00 (0000ms, 0362ms total)
T10C4 000:657 JLINK_WriteReg(R6, 0x00000000)  returns 0x00 (0000ms, 0362ms total)
T10C4 000:657 JLINK_WriteReg(R7, 0x00000000)  returns 0x00 (0000ms, 0362ms total)
T10C4 000:657 JLINK_WriteReg(R8, 0x00000000)  returns 0x00 (0000ms, 0362ms total)
T10C4 000:657 JLINK_WriteReg(R9, 0x100000B0)  returns 0x00 (0000ms, 0362ms total)
T10C4 000:657 JLINK_WriteReg(R10, 0x00000000)  returns 0x00 (0000ms, 0362ms total)
T10C4 000:657 JLINK_WriteReg(R11, 0x00000000)  returns 0x00 (0000ms, 0362ms total)
T10C4 000:657 JLINK_WriteReg(R12, 0x00000000)  returns 0x00 (0000ms, 0362ms total)
T10C4 000:657 JLINK_WriteReg(R13 (SP), 0x10004000)  returns 0x00 (0000ms, 0362ms total)
T10C4 000:657 JLINK_WriteReg(R14, 0x10000001)  returns 0x00 (0000ms, 0362ms total)
T10C4 000:657 JLINK_WriteReg(R15 (PC), 0x10000020)  returns 0x00 (0000ms, 0362ms total)
T10C4 000:657 JLINK_WriteReg(XPSR, 0x01000000)  returns 0x00 (0000ms, 0362ms total)
T10C4 000:657 JLINK_WriteReg(MSP, 0x10004000)  returns 0x00 (0000ms, 0362ms total)
T10C4 000:657 JLINK_WriteReg(PSP, 0x10004000)  returns 0x00 (0000ms, 0362ms total)
T10C4 000:657 JLINK_WriteReg(CFBP, 0x00000000)  returns 0x00 (0000ms, 0362ms total)
T10C4 000:657 JLINK_SetBPEx(Addr = 0x10000000, Type = 0xFFFFFFF2)  returns 0x00000004 (0000ms, 0362ms total)
T10C4 000:657 JLINK_Go() -- CPU_WriteMem(4 bytes @ 0xE0002000) -- CPU_ReadMem(4 bytes @ 0xE0001000) (0004ms, 0366ms total)
T10C4 000:661 JLINK_IsHalted()  returns TRUE (0007ms, 0373ms total)
T10C4 000:668 JLINK_ReadReg(R15 (PC))  returns 0x10000000 (0000ms, 0366ms total)
T10C4 000:668 JLINK_ClrBPEx(BPHandle = 0x00000004)  returns 0x00 (0000ms, 0366ms total)
T10C4 000:668 JLINK_ReadReg(R0)  returns 0x00000001 (0000ms, 0366ms total)
T10C4 000:668 JLINK_WriteReg(R0, 0x00000800)  returns 0x00 (0000ms, 0366ms total)
T10C4 000:668 JLINK_WriteReg(R1, 0x00000800)  returns 0x00 (0000ms, 0366ms total)
T10C4 000:668 JLINK_WriteReg(R2, 0x000000FF)  returns 0x00 (0000ms, 0366ms total)
T10C4 000:668 JLINK_WriteReg(R3, 0x00000000)  returns 0x00 (0000ms, 0366ms total)
T10C4 000:668 JLINK_WriteReg(R4, 0x00000000)  returns 0x00 (0000ms, 0366ms total)
T10C4 000:668 JLINK_WriteReg(R5, 0x00000000)  returns 0x00 (0000ms, 0366ms total)
T10C4 000:668 JLINK_WriteReg(R6, 0x00000000)  returns 0x00 (0000ms, 0366ms total)
T10C4 000:668 JLINK_WriteReg(R7, 0x00000000)  returns 0x00 (0000ms, 0366ms total)
T10C4 000:668 JLINK_WriteReg(R8, 0x00000000)  returns 0x00 (0000ms, 0366ms total)
T10C4 000:668 JLINK_WriteReg(R9, 0x100000B0)  returns 0x00 (0000ms, 0366ms total)
T10C4 000:668 JLINK_WriteReg(R10, 0x00000000)  returns 0x00 (0000ms, 0366ms total)
T10C4 000:668 JLINK_WriteReg(R11, 0x00000000)  returns 0x00 (0000ms, 0366ms total)
T10C4 000:668 JLINK_WriteReg(R12, 0x00000000)  returns 0x00 (0000ms, 0366ms total)
T10C4 000:668 JLINK_WriteReg(R13 (SP), 0x10004000)  returns 0x00 (0000ms, 0366ms total)
T10C4 000:668 JLINK_WriteReg(R14, 0x10000001)  returns 0x00 (0000ms, 0366ms total)
T10C4 000:668 JLINK_WriteReg(R15 (PC), 0x1000005E)  returns 0x00 (0000ms, 0366ms total)
T10C4 000:668 JLINK_WriteReg(XPSR, 0x01000000)  returns 0x00 (0000ms, 0366ms total)
T10C4 000:668 JLINK_WriteReg(MSP, 0x10004000)  returns 0x00 (0000ms, 0366ms total)
T10C4 000:668 JLINK_WriteReg(PSP, 0x10004000)  returns 0x00 (0000ms, 0366ms total)
T10C4 000:668 JLINK_WriteReg(CFBP, 0x00000000)  returns 0x00 (0000ms, 0366ms total)
T10C4 000:668 JLINK_SetBPEx(Addr = 0x10000000, Type = 0xFFFFFFF2)  returns 0x00000005 (0000ms, 0366ms total)
T10C4 000:668 JLINK_Go() -- CPU_WriteMem(4 bytes @ 0xE0002000) -- CPU_ReadMem(4 bytes @ 0xE0001000) (0004ms, 0370ms total)
T10C4 000:672 JLINK_IsHalted()  returns FALSE (0000ms, 0370ms total)
T10C4 000:673 JLINK_IsHalted()  returns FALSE (0000ms, 0370ms total)
T10C4 000:674 JLINK_IsHalted()  returns FALSE (0000ms, 0370ms total)
T10C4 000:675 JLINK_IsHalted()  returns FALSE (0000ms, 0370ms total)
T10C4 000:676 JLINK_IsHalted()  returns FALSE (0000ms, 0370ms total)
T10C4 000:677 JLINK_IsHalted()  returns FALSE (0000ms, 0370ms total)
T10C4 000:678 JLINK_IsHalted()  returns FALSE (0000ms, 0370ms total)
T10C4 000:679 JLINK_IsHalted()  returns FALSE (0000ms, 0370ms total)
T10C4 000:680 JLINK_IsHalted()  returns FALSE (0000ms, 0370ms total)
T10C4 000:681 JLINK_IsHalted()  returns FALSE (0000ms, 0370ms total)
T10C4 000:682 JLINK_IsHalted()  returns FALSE (0000ms, 0370ms total)
T10C4 000:684 JLINK_IsHalted()  returns FALSE (0000ms, 0370ms total)
T10C4 000:685 JLINK_IsHalted()  returns FALSE (0000ms, 0370ms total)
T10C4 000:686 JLINK_IsHalted()  returns FALSE (0000ms, 0370ms total)
T10C4 000:687 JLINK_IsHalted()  returns FALSE (0000ms, 0370ms total)
T10C4 000:688 JLINK_IsHalted()  returns FALSE (0000ms, 0370ms total)
T10C4 000:689 JLINK_IsHalted()  returns FALSE (0000ms, 0370ms total)
T10C4 000:690 JLINK_IsHalted()  returns FALSE (0000ms, 0370ms total)
T10C4 000:691 JLINK_IsHalted()  returns FALSE (0000ms, 0370ms total)
T10C4 000:692 JLINK_IsHalted()  returns FALSE (0000ms, 0370ms total)
T10C4 000:693 JLINK_IsHalted()  returns FALSE (0000ms, 0370ms total)
T10C4 000:694 JLINK_IsHalted()  returns FALSE (0000ms, 0370ms total)
T10C4 000:695 JLINK_IsHalted()  returns FALSE (0000ms, 0370ms total)
T10C4 000:696 JLINK_IsHalted()  returns FALSE (0000ms, 0370ms total)
T10C4 000:697 JLINK_IsHalted()  returns FALSE (0000ms, 0370ms total)
T10C4 000:701 JLINK_IsHalted()  returns FALSE (0000ms, 0370ms total)
T10C4 000:702 JLINK_IsHalted()  returns FALSE (0000ms, 0370ms total)
T10C4 000:703 JLINK_IsHalted()  returns FALSE (0000ms, 0370ms total)
T10C4 000:704 JLINK_IsHalted()  returns FALSE (0000ms, 0370ms total)
T10C4 000:705 JLINK_IsHalted()  returns FALSE (0000ms, 0370ms total)
T10C4 000:706 JLINK_IsHalted()  returns FALSE (0000ms, 0370ms total)
T10C4 000:707 JLINK_IsHalted()  returns FALSE (0000ms, 0370ms total)
T10C4 000:708 JLINK_IsHalted()  returns FALSE (0000ms, 0370ms total)
T10C4 000:709 JLINK_IsHalted()  returns FALSE (0000ms, 0370ms total)
T10C4 000:710 JLINK_IsHalted()  returns FALSE (0000ms, 0370ms total)
T10C4 000:711 JLINK_IsHalted()  returns FALSE (0000ms, 0370ms total)
T10C4 000:712 JLINK_IsHalted()  returns TRUE (0006ms, 0376ms total)
T10C4 000:718 JLINK_ReadReg(R15 (PC))  returns 0x10000000 (0000ms, 0370ms total)
T10C4 000:718 JLINK_ClrBPEx(BPHandle = 0x00000005)  returns 0x00 (0000ms, 0370ms total)
T10C4 000:718 JLINK_ReadReg(R0)  returns 0x00000000 (0000ms, 0370ms total)
T10C4 000:719 JLINK_WriteReg(R0, 0x00001000)  returns 0x00 (0000ms, 0370ms total)
T10C4 000:719 JLINK_WriteReg(R1, 0x00000800)  returns 0x00 (0000ms, 0370ms total)
T10C4 000:719 JLINK_WriteReg(R2, 0x000000FF)  returns 0x00 (0000ms, 0370ms total)
T10C4 000:719 JLINK_WriteReg(R3, 0x00000000)  returns 0x00 (0000ms, 0370ms total)
T10C4 000:719 JLINK_WriteReg(R4, 0x00000000)  returns 0x00 (0000ms, 0370ms total)
T10C4 000:719 JLINK_WriteReg(R5, 0x00000000)  returns 0x00 (0000ms, 0370ms total)
T10C4 000:719 JLINK_WriteReg(R6, 0x00000000)  returns 0x00 (0000ms, 0370ms total)
T10C4 000:719 JLINK_WriteReg(R7, 0x00000000)  returns 0x00 (0000ms, 0370ms total)
T10C4 000:719 JLINK_WriteReg(R8, 0x00000000)  returns 0x00 (0000ms, 0370ms total)
T10C4 000:720 JLINK_WriteReg(R9, 0x100000B0)  returns 0x00 (0000ms, 0371ms total)
T10C4 000:720 JLINK_WriteReg(R10, 0x00000000)  returns 0x00 (0000ms, 0371ms total)
T10C4 000:720 JLINK_WriteReg(R11, 0x00000000)  returns 0x00 (0000ms, 0371ms total)
T10C4 000:720 JLINK_WriteReg(R12, 0x00000000)  returns 0x00 (0000ms, 0371ms total)
T10C4 000:720 JLINK_WriteReg(R13 (SP), 0x10004000)  returns 0x00 (0000ms, 0371ms total)
T10C4 000:720 JLINK_WriteReg(R14, 0x10000001)  returns 0x00 (0000ms, 0371ms total)
T10C4 000:720 JLINK_WriteReg(R15 (PC), 0x10000020)  returns 0x00 (0000ms, 0371ms total)
T10C4 000:720 JLINK_WriteReg(XPSR, 0x01000000)  returns 0x00 (0000ms, 0371ms total)
T10C4 000:720 JLINK_WriteReg(MSP, 0x10004000)  returns 0x00 (0000ms, 0371ms total)
T10C4 000:720 JLINK_WriteReg(PSP, 0x10004000)  returns 0x00 (0000ms, 0371ms total)
T10C4 000:720 JLINK_WriteReg(CFBP, 0x00000000)  returns 0x00 (0000ms, 0371ms total)
T10C4 000:720 JLINK_SetBPEx(Addr = 0x10000000, Type = 0xFFFFFFF2)  returns 0x00000006 (0000ms, 0371ms total)
T10C4 000:720 JLINK_Go() -- CPU_WriteMem(4 bytes @ 0xE0002000) -- CPU_ReadMem(4 bytes @ 0xE0001000) (0005ms, 0376ms total)
T10C4 000:725 JLINK_IsHalted()  returns TRUE (0006ms, 0382ms total)
T10C4 000:731 JLINK_ReadReg(R15 (PC))  returns 0x10000000 (0000ms, 0376ms total)
T10C4 000:732 JLINK_ClrBPEx(BPHandle = 0x00000006)  returns 0x00 (0000ms, 0377ms total)
T10C4 000:732 JLINK_ReadReg(R0)  returns 0x00000001 (0000ms, 0377ms total)
T10C4 000:732 JLINK_WriteReg(R0, 0x00001000)  returns 0x00 (0000ms, 0377ms total)
T10C4 000:732 JLINK_WriteReg(R1, 0x00000800)  returns 0x00 (0000ms, 0377ms total)
T10C4 000:732 JLINK_WriteReg(R2, 0x000000FF)  returns 0x00 (0000ms, 0377ms total)
T10C4 000:732 JLINK_WriteReg(R3, 0x00000000)  returns 0x00 (0000ms, 0377ms total)
T10C4 000:732 JLINK_WriteReg(R4, 0x00000000)  returns 0x00 (0000ms, 0377ms total)
T10C4 000:732 JLINK_WriteReg(R5, 0x00000000)  returns 0x00 (0000ms, 0377ms total)
T10C4 000:732 JLINK_WriteReg(R6, 0x00000000)  returns 0x00 (0000ms, 0377ms total)
T10C4 000:732 JLINK_WriteReg(R7, 0x00000000)  returns 0x00 (0000ms, 0377ms total)
T10C4 000:732 JLINK_WriteReg(R8, 0x00000000)  returns 0x00 (0000ms, 0377ms total)
T10C4 000:732 JLINK_WriteReg(R9, 0x100000B0)  returns 0x00 (0000ms, 0377ms total)
T10C4 000:732 JLINK_WriteReg(R10, 0x00000000)  returns 0x00 (0000ms, 0377ms total)
T10C4 000:732 JLINK_WriteReg(R11, 0x00000000)  returns 0x00 (0000ms, 0377ms total)
T10C4 000:732 JLINK_WriteReg(R12, 0x00000000)  returns 0x00 (0000ms, 0377ms total)
T10C4 000:732 JLINK_WriteReg(R13 (SP), 0x10004000)  returns 0x00 (0000ms, 0377ms total)
T10C4 000:732 JLINK_WriteReg(R14, 0x10000001)  returns 0x00 (0000ms, 0377ms total)
T10C4 000:732 JLINK_WriteReg(R15 (PC), 0x1000005E)  returns 0x00 (0000ms, 0377ms total)
T10C4 000:732 JLINK_WriteReg(XPSR, 0x01000000)  returns 0x00 (0000ms, 0377ms total)
T10C4 000:732 JLINK_WriteReg(MSP, 0x10004000)  returns 0x00 (0000ms, 0377ms total)
T10C4 000:732 JLINK_WriteReg(PSP, 0x10004000)  returns 0x00 (0000ms, 0377ms total)
T10C4 000:732 JLINK_WriteReg(CFBP, 0x00000000)  returns 0x00 (0000ms, 0377ms total)
T10C4 000:732 JLINK_SetBPEx(Addr = 0x10000000, Type = 0xFFFFFFF2)  returns 0x00000007 (0000ms, 0377ms total)
T10C4 000:732 JLINK_Go() -- CPU_WriteMem(4 bytes @ 0xE0002000) -- CPU_ReadMem(4 bytes @ 0xE0001000) (0005ms, 0382ms total)
T10C4 000:737 JLINK_IsHalted()  returns FALSE (0001ms, 0383ms total)
T10C4 000:750 JLINK_IsHalted()  returns FALSE (0001ms, 0383ms total)
T10C4 000:752 JLINK_IsHalted()  returns FALSE (0000ms, 0382ms total)
T10C4 000:753 JLINK_IsHalted()  returns FALSE (0001ms, 0383ms total)
T10C4 000:755 JLINK_IsHalted()  returns FALSE (0001ms, 0383ms total)
T10C4 000:757 JLINK_IsHalted()  returns FALSE (0001ms, 0383ms total)
T10C4 000:759 JLINK_IsHalted()  returns FALSE (0000ms, 0382ms total)
T10C4 000:760 JLINK_IsHalted()  returns FALSE (0000ms, 0382ms total)
T10C4 000:761 JLINK_IsHalted()  returns FALSE (0001ms, 0383ms total)
T10C4 000:763 JLINK_IsHalted()  returns FALSE (0001ms, 0383ms total)
T10C4 000:765 JLINK_IsHalted()  returns FALSE (0001ms, 0383ms total)
T10C4 000:767 JLINK_IsHalted()  returns FALSE (0001ms, 0383ms total)
T10C4 000:769 JLINK_IsHalted()  returns FALSE (0001ms, 0383ms total)
T10C4 000:771 JLINK_IsHalted()  returns FALSE (0001ms, 0383ms total)
T10C4 000:773 JLINK_IsHalted()  returns FALSE (0001ms, 0383ms total)
T10C4 000:775 JLINK_IsHalted()  returns FALSE (0001ms, 0383ms total)
T10C4 000:777 JLINK_IsHalted()  returns TRUE (0006ms, 0388ms total)
T10C4 000:783 JLINK_ReadReg(R15 (PC))  returns 0x10000000 (0000ms, 0382ms total)
T10C4 000:783 JLINK_ClrBPEx(BPHandle = 0x00000007)  returns 0x00 (0000ms, 0382ms total)
T10C4 000:783 JLINK_ReadReg(R0)  returns 0x00000000 (0000ms, 0382ms total)
T10C4 000:784 JLINK_WriteReg(R0, 0x00001800)  returns 0x00 (0000ms, 0382ms total)
T10C4 000:784 JLINK_WriteReg(R1, 0x00000800)  returns 0x00 (0000ms, 0382ms total)
T10C4 000:784 JLINK_WriteReg(R2, 0x000000FF)  returns 0x00 (0000ms, 0382ms total)
T10C4 000:784 JLINK_WriteReg(R3, 0x00000000)  returns 0x00 (0000ms, 0382ms total)
T10C4 000:784 JLINK_WriteReg(R4, 0x00000000)  returns 0x00 (0000ms, 0382ms total)
T10C4 000:784 JLINK_WriteReg(R5, 0x00000000)  returns 0x00 (0000ms, 0382ms total)
T10C4 000:784 JLINK_WriteReg(R6, 0x00000000)  returns 0x00 (0000ms, 0382ms total)
T10C4 000:784 JLINK_WriteReg(R7, 0x00000000)  returns 0x00 (0000ms, 0382ms total)
T10C4 000:784 JLINK_WriteReg(R8, 0x00000000)  returns 0x00 (0000ms, 0382ms total)
T10C4 000:784 JLINK_WriteReg(R9, 0x100000B0)  returns 0x00 (0000ms, 0382ms total)
T10C4 000:784 JLINK_WriteReg(R10, 0x00000000)  returns 0x00 (0000ms, 0382ms total)
T10C4 000:784 JLINK_WriteReg(R11, 0x00000000)  returns 0x00 (0000ms, 0382ms total)
T10C4 000:784 JLINK_WriteReg(R12, 0x00000000)  returns 0x00 (0000ms, 0382ms total)
T10C4 000:785 JLINK_WriteReg(R13 (SP), 0x10004000)  returns 0x00 (0000ms, 0382ms total)
T10C4 000:785 JLINK_WriteReg(R14, 0x10000001)  returns 0x00 (0000ms, 0382ms total)
T10C4 000:785 JLINK_WriteReg(R15 (PC), 0x10000020)  returns 0x00 (0000ms, 0382ms total)
T10C4 000:785 JLINK_WriteReg(XPSR, 0x01000000)  returns 0x00 (0000ms, 0382ms total)
T10C4 000:785 JLINK_WriteReg(MSP, 0x10004000)  returns 0x00 (0000ms, 0382ms total)
T10C4 000:785 JLINK_WriteReg(PSP, 0x10004000)  returns 0x00 (0000ms, 0382ms total)
T10C4 000:785 JLINK_WriteReg(CFBP, 0x00000000)  returns 0x00 (0000ms, 0382ms total)
T10C4 000:785 JLINK_SetBPEx(Addr = 0x10000000, Type = 0xFFFFFFF2)  returns 0x00000008 (0000ms, 0382ms total)
T10C4 000:785 JLINK_Go() -- CPU_WriteMem(4 bytes @ 0xE0002000) -- CPU_ReadMem(4 bytes @ 0xE0001000) (0005ms, 0387ms total)
T10C4 000:790 JLINK_IsHalted()  returns TRUE (0007ms, 0394ms total)
T10C4 000:797 JLINK_ReadReg(R15 (PC))  returns 0x10000000 (0000ms, 0387ms total)
T10C4 000:797 JLINK_ClrBPEx(BPHandle = 0x00000008)  returns 0x00 (0000ms, 0387ms total)
T10C4 000:797 JLINK_ReadReg(R0)  returns 0x00000001 (0000ms, 0387ms total)
T10C4 000:797 JLINK_WriteReg(R0, 0x00001800)  returns 0x00 (0000ms, 0387ms total)
T10C4 000:797 JLINK_WriteReg(R1, 0x00000800)  returns 0x00 (0001ms, 0388ms total)
T10C4 000:798 JLINK_WriteReg(R2, 0x000000FF)  returns 0x00 (0000ms, 0388ms total)
T10C4 000:798 JLINK_WriteReg(R3, 0x00000000)  returns 0x00 (0000ms, 0388ms total)
T10C4 000:798 JLINK_WriteReg(R4, 0x00000000)  returns 0x00 (0000ms, 0388ms total)
T10C4 000:798 JLINK_WriteReg(R5, 0x00000000)  returns 0x00 (0000ms, 0388ms total)
T10C4 000:798 JLINK_WriteReg(R6, 0x00000000)  returns 0x00 (0000ms, 0388ms total)
T10C4 000:798 JLINK_WriteReg(R7, 0x00000000)  returns 0x00 (0000ms, 0388ms total)
T10C4 000:798 JLINK_WriteReg(R8, 0x00000000)  returns 0x00 (0000ms, 0388ms total)
T10C4 000:798 JLINK_WriteReg(R9, 0x100000B0)  returns 0x00 (0000ms, 0388ms total)
T10C4 000:798 JLINK_WriteReg(R10, 0x00000000)  returns 0x00 (0000ms, 0388ms total)
T10C4 000:798 JLINK_WriteReg(R11, 0x00000000)  returns 0x00 (0000ms, 0388ms total)
T10C4 000:798 JLINK_WriteReg(R12, 0x00000000)  returns 0x00 (0000ms, 0388ms total)
T10C4 000:798 JLINK_WriteReg(R13 (SP), 0x10004000)  returns 0x00 (0000ms, 0388ms total)
T10C4 000:798 JLINK_WriteReg(R14, 0x10000001)  returns 0x00 (0000ms, 0388ms total)
T10C4 000:798 JLINK_WriteReg(R15 (PC), 0x1000005E)  returns 0x00 (0000ms, 0388ms total)
T10C4 000:798 JLINK_WriteReg(XPSR, 0x01000000)  returns 0x00 (0000ms, 0388ms total)
T10C4 000:798 JLINK_WriteReg(MSP, 0x10004000)  returns 0x00 (0000ms, 0388ms total)
T10C4 000:798 JLINK_WriteReg(PSP, 0x10004000)  returns 0x00 (0000ms, 0388ms total)
T10C4 000:798 JLINK_WriteReg(CFBP, 0x00000000)  returns 0x00 (0000ms, 0388ms total)
T10C4 000:798 JLINK_SetBPEx(Addr = 0x10000000, Type = 0xFFFFFFF2)  returns 0x00000009 (0000ms, 0388ms total)
T10C4 000:798 JLINK_Go() -- CPU_WriteMem(4 bytes @ 0xE0002000) -- CPU_ReadMem(4 bytes @ 0xE0001000) (0005ms, 0393ms total)
T10C4 000:803 JLINK_IsHalted()  returns FALSE (0001ms, 0394ms total)
T10C4 000:805 JLINK_IsHalted()  returns FALSE (0001ms, 0394ms total)
T10C4 000:807 JLINK_IsHalted()  returns FALSE (0001ms, 0394ms total)
T10C4 000:813 JLINK_IsHalted()  returns FALSE (0001ms, 0394ms total)
T10C4 000:815 JLINK_IsHalted()  returns FALSE (0001ms, 0394ms total)
T10C4 000:817 JLINK_IsHalted()  returns FALSE (0001ms, 0394ms total)
T10C4 000:819 JLINK_IsHalted()  returns FALSE (0001ms, 0394ms total)
T10C4 000:821 JLINK_IsHalted()  returns FALSE (0001ms, 0394ms total)
T10C4 000:823 JLINK_IsHalted()  returns FALSE (0001ms, 0394ms total)
T10C4 000:825 JLINK_IsHalted()  returns FALSE (0001ms, 0394ms total)
T10C4 000:827 JLINK_IsHalted()  returns FALSE (0001ms, 0394ms total)
T10C4 000:829 JLINK_IsHalted()  returns FALSE (0001ms, 0394ms total)
T10C4 000:831 JLINK_IsHalted()  returns FALSE (0001ms, 0394ms total)
T10C4 000:833 JLINK_IsHalted()  returns FALSE (0001ms, 0394ms total)
T10C4 000:835 JLINK_IsHalted()  returns FALSE (0001ms, 0394ms total)
T10C4 000:837 JLINK_IsHalted()  returns FALSE (0001ms, 0394ms total)
T10C4 000:847 JLINK_IsHalted()  returns TRUE (0006ms, 0399ms total)
T10C4 000:854 JLINK_ReadReg(R15 (PC))  returns 0x10000000 (0000ms, 0393ms total)
T10C4 000:854 JLINK_ClrBPEx(BPHandle = 0x00000009)  returns 0x00 (0000ms, 0393ms total)
T10C4 000:854 JLINK_ReadReg(R0)  returns 0x00000000 (0000ms, 0393ms total)
T10C4 000:855 JLINK_WriteReg(R0, 0x00002000)  returns 0x00 (0000ms, 0393ms total)
T10C4 000:855 JLINK_WriteReg(R1, 0x00000800)  returns 0x00 (0000ms, 0393ms total)
T10C4 000:855 JLINK_WriteReg(R2, 0x000000FF)  returns 0x00 (0000ms, 0393ms total)
T10C4 000:855 JLINK_WriteReg(R3, 0x00000000)  returns 0x00 (0000ms, 0393ms total)
T10C4 000:855 JLINK_WriteReg(R4, 0x00000000)  returns 0x00 (0000ms, 0393ms total)
T10C4 000:855 JLINK_WriteReg(R5, 0x00000000)  returns 0x00 (0000ms, 0393ms total)
T10C4 000:855 JLINK_WriteReg(R6, 0x00000000)  returns 0x00 (0000ms, 0393ms total)
T10C4 000:855 JLINK_WriteReg(R7, 0x00000000)  returns 0x00 (0000ms, 0393ms total)
T10C4 000:855 JLINK_WriteReg(R8, 0x00000000)  returns 0x00 (0000ms, 0393ms total)
T10C4 000:855 JLINK_WriteReg(R9, 0x100000B0)  returns 0x00 (0000ms, 0393ms total)
T10C4 000:855 JLINK_WriteReg(R10, 0x00000000)  returns 0x00 (0000ms, 0393ms total)
T10C4 000:855 JLINK_WriteReg(R11, 0x00000000)  returns 0x00 (0000ms, 0393ms total)
T10C4 000:855 JLINK_WriteReg(R12, 0x00000000)  returns 0x00 (0000ms, 0393ms total)
T10C4 000:855 JLINK_WriteReg(R13 (SP), 0x10004000)  returns 0x00 (0000ms, 0393ms total)
T10C4 000:855 JLINK_WriteReg(R14, 0x10000001)  returns 0x00 (0000ms, 0393ms total)
T10C4 000:855 JLINK_WriteReg(R15 (PC), 0x10000020)  returns 0x00 (0000ms, 0393ms total)
T10C4 000:855 JLINK_WriteReg(XPSR, 0x01000000)  returns 0x00 (0000ms, 0393ms total)
T10C4 000:855 JLINK_WriteReg(MSP, 0x10004000)  returns 0x00 (0000ms, 0393ms total)
T10C4 000:855 JLINK_WriteReg(PSP, 0x10004000)  returns 0x00 (0000ms, 0393ms total)
T10C4 000:855 JLINK_WriteReg(CFBP, 0x00000000)  returns 0x00 (0000ms, 0393ms total)
T10C4 000:855 JLINK_SetBPEx(Addr = 0x10000000, Type = 0xFFFFFFF2)  returns 0x0000000A (0000ms, 0393ms total)
T10C4 000:855 JLINK_Go() -- CPU_WriteMem(4 bytes @ 0xE0002000) -- CPU_ReadMem(4 bytes @ 0xE0001000) (0005ms, 0398ms total)
T10C4 000:860 JLINK_IsHalted()  returns TRUE (0007ms, 0405ms total)
T10C4 000:867 JLINK_ReadReg(R15 (PC))  returns 0x10000000 (0000ms, 0398ms total)
T10C4 000:867 JLINK_ClrBPEx(BPHandle = 0x0000000A)  returns 0x00 (0000ms, 0398ms total)
T10C4 000:867 JLINK_ReadReg(R0)  returns 0x00000001 (0000ms, 0398ms total)
T10C4 000:867 JLINK_WriteReg(R0, 0x00002000)  returns 0x00 (0000ms, 0398ms total)
T10C4 000:867 JLINK_WriteReg(R1, 0x00000800)  returns 0x00 (0000ms, 0398ms total)
T10C4 000:867 JLINK_WriteReg(R2, 0x000000FF)  returns 0x00 (0000ms, 0398ms total)
T10C4 000:867 JLINK_WriteReg(R3, 0x00000000)  returns 0x00 (0000ms, 0398ms total)
T10C4 000:868 JLINK_WriteReg(R4, 0x00000000)  returns 0x00 (0000ms, 0398ms total)
T10C4 000:868 JLINK_WriteReg(R5, 0x00000000)  returns 0x00 (0000ms, 0398ms total)
T10C4 000:868 JLINK_WriteReg(R6, 0x00000000)  returns 0x00 (0000ms, 0398ms total)
T10C4 000:868 JLINK_WriteReg(R7, 0x00000000)  returns 0x00 (0000ms, 0398ms total)
T10C4 000:868 JLINK_WriteReg(R8, 0x00000000)  returns 0x00 (0000ms, 0398ms total)
T10C4 000:868 JLINK_WriteReg(R9, 0x100000B0)  returns 0x00 (0000ms, 0398ms total)
T10C4 000:868 JLINK_WriteReg(R10, 0x00000000)  returns 0x00 (0000ms, 0398ms total)
T10C4 000:868 JLINK_WriteReg(R11, 0x00000000)  returns 0x00 (0000ms, 0398ms total)
T10C4 000:868 JLINK_WriteReg(R12, 0x00000000)  returns 0x00 (0000ms, 0398ms total)
T10C4 000:868 JLINK_WriteReg(R13 (SP), 0x10004000)  returns 0x00 (0000ms, 0398ms total)
T10C4 000:868 JLINK_WriteReg(R14, 0x10000001)  returns 0x00 (0000ms, 0398ms total)
T10C4 000:868 JLINK_WriteReg(R15 (PC), 0x1000005E)  returns 0x00 (0000ms, 0398ms total)
T10C4 000:868 JLINK_WriteReg(XPSR, 0x01000000)  returns 0x00 (0000ms, 0398ms total)
T10C4 000:868 JLINK_WriteReg(MSP, 0x10004000)  returns 0x00 (0000ms, 0398ms total)
T10C4 000:868 JLINK_WriteReg(PSP, 0x10004000)  returns 0x00 (0000ms, 0398ms total)
T10C4 000:868 JLINK_WriteReg(CFBP, 0x00000000)  returns 0x00 (0000ms, 0398ms total)
T10C4 000:868 JLINK_SetBPEx(Addr = 0x10000000, Type = 0xFFFFFFF2)  returns 0x0000000B (0000ms, 0398ms total)
T10C4 000:868 JLINK_Go() -- CPU_WriteMem(4 bytes @ 0xE0002000) -- CPU_ReadMem(4 bytes @ 0xE0001000) (0005ms, 0403ms total)
T10C4 000:873 JLINK_IsHalted()  returns FALSE (0001ms, 0404ms total)
T10C4 000:877 JLINK_IsHalted()  returns FALSE (0001ms, 0404ms total)
T10C4 000:879 JLINK_IsHalted()  returns FALSE (0001ms, 0404ms total)
T10C4 000:881 JLINK_IsHalted()  returns FALSE (0000ms, 0403ms total)
T10C4 000:883 JLINK_IsHalted()  returns FALSE (0001ms, 0404ms total)
T10C4 000:885 JLINK_IsHalted()  returns FALSE (0001ms, 0404ms total)
T10C4 000:887 JLINK_IsHalted()  returns FALSE (0000ms, 0403ms total)
T10C4 000:888 JLINK_IsHalted()  returns FALSE (0000ms, 0403ms total)
T10C4 000:889 JLINK_IsHalted()  returns FALSE (0001ms, 0404ms total)
T10C4 000:891 JLINK_IsHalted()  returns FALSE (0001ms, 0404ms total)
T10C4 000:893 JLINK_IsHalted()  returns FALSE (0001ms, 0404ms total)
T10C4 000:895 JLINK_IsHalted()  returns FALSE (0001ms, 0404ms total)
T10C4 000:897 JLINK_IsHalted()  returns FALSE (0000ms, 0403ms total)
T10C4 000:898 JLINK_IsHalted()  returns FALSE (0000ms, 0403ms total)
T10C4 000:899 JLINK_IsHalted()  returns FALSE (0001ms, 0404ms total)
T10C4 000:901 JLINK_IsHalted()  returns FALSE (0001ms, 0404ms total)
T10C4 000:903 JLINK_IsHalted()  returns FALSE (0001ms, 0404ms total)
T10C4 000:905 JLINK_IsHalted()  returns FALSE (0001ms, 0404ms total)
T10C4 000:907 JLINK_IsHalted()  returns FALSE (0001ms, 0404ms total)
T10C4 000:909 JLINK_IsHalted()  returns FALSE (0001ms, 0404ms total)
T10C4 000:911 JLINK_IsHalted()  returns FALSE (0001ms, 0404ms total)
T10C4 000:913 JLINK_IsHalted()  returns TRUE (0007ms, 0410ms total)
T10C4 000:920 JLINK_ReadReg(R15 (PC))  returns 0x10000000 (0000ms, 0403ms total)
T10C4 000:920 JLINK_ClrBPEx(BPHandle = 0x0000000B)  returns 0x00 (0000ms, 0403ms total)
T10C4 000:920 JLINK_ReadReg(R0)  returns 0x00000000 (0000ms, 0403ms total)
T10C4 000:921 JLINK_WriteReg(R0, 0x00002800)  returns 0x00 (0000ms, 0403ms total)
T10C4 000:921 JLINK_WriteReg(R1, 0x00000800)  returns 0x00 (0000ms, 0403ms total)
T10C4 000:921 JLINK_WriteReg(R2, 0x000000FF)  returns 0x00 (0000ms, 0403ms total)
T10C4 000:921 JLINK_WriteReg(R3, 0x00000000)  returns 0x00 (0000ms, 0403ms total)
T10C4 000:921 JLINK_WriteReg(R4, 0x00000000)  returns 0x00 (0000ms, 0403ms total)
T10C4 000:921 JLINK_WriteReg(R5, 0x00000000)  returns 0x00 (0000ms, 0403ms total)
T10C4 000:921 JLINK_WriteReg(R6, 0x00000000)  returns 0x00 (0000ms, 0403ms total)
T10C4 000:921 JLINK_WriteReg(R7, 0x00000000)  returns 0x00 (0000ms, 0403ms total)
T10C4 000:921 JLINK_WriteReg(R8, 0x00000000)  returns 0x00 (0000ms, 0403ms total)
T10C4 000:921 JLINK_WriteReg(R9, 0x100000B0)  returns 0x00 (0000ms, 0403ms total)
T10C4 000:921 JLINK_WriteReg(R10, 0x00000000)  returns 0x00 (0000ms, 0403ms total)
T10C4 000:921 JLINK_WriteReg(R11, 0x00000000)  returns 0x00 (0000ms, 0403ms total)
T10C4 000:921 JLINK_WriteReg(R12, 0x00000000)  returns 0x00 (0000ms, 0403ms total)
T10C4 000:921 JLINK_WriteReg(R13 (SP), 0x10004000)  returns 0x00 (0000ms, 0403ms total)
T10C4 000:921 JLINK_WriteReg(R14, 0x10000001)  returns 0x00 (0000ms, 0403ms total)
T10C4 000:921 JLINK_WriteReg(R15 (PC), 0x10000020)  returns 0x00 (0000ms, 0403ms total)
T10C4 000:921 JLINK_WriteReg(XPSR, 0x01000000)  returns 0x00 (0000ms, 0403ms total)
T10C4 000:921 JLINK_WriteReg(MSP, 0x10004000)  returns 0x00 (0000ms, 0403ms total)
T10C4 000:921 JLINK_WriteReg(PSP, 0x10004000)  returns 0x00 (0000ms, 0403ms total)
T10C4 000:921 JLINK_WriteReg(CFBP, 0x00000000)  returns 0x00 (0000ms, 0403ms total)
T10C4 000:921 JLINK_SetBPEx(Addr = 0x10000000, Type = 0xFFFFFFF2)  returns 0x0000000C (0000ms, 0403ms total)
T10C4 000:921 JLINK_Go() -- CPU_WriteMem(4 bytes @ 0xE0002000) -- CPU_ReadMem(4 bytes @ 0xE0001000) (0006ms, 0409ms total)
T10C4 000:927 JLINK_IsHalted()  returns TRUE (0007ms, 0416ms total)
T10C4 000:934 JLINK_ReadReg(R15 (PC))  returns 0x10000000 (0000ms, 0409ms total)
T10C4 000:934 JLINK_ClrBPEx(BPHandle = 0x0000000C)  returns 0x00 (0000ms, 0409ms total)
T10C4 000:934 JLINK_ReadReg(R0)  returns 0x00000001 (0000ms, 0409ms total)
T10C4 000:934 JLINK_WriteReg(R0, 0x00002800)  returns 0x00 (0000ms, 0409ms total)
T10C4 000:934 JLINK_WriteReg(R1, 0x00000800)  returns 0x00 (0000ms, 0409ms total)
T10C4 000:934 JLINK_WriteReg(R2, 0x000000FF)  returns 0x00 (0000ms, 0409ms total)
T10C4 000:934 JLINK_WriteReg(R3, 0x00000000)  returns 0x00 (0000ms, 0409ms total)
T10C4 000:934 JLINK_WriteReg(R4, 0x00000000)  returns 0x00 (0000ms, 0409ms total)
T10C4 000:934 JLINK_WriteReg(R5, 0x00000000)  returns 0x00 (0000ms, 0409ms total)
T10C4 000:934 JLINK_WriteReg(R6, 0x00000000)  returns 0x00 (0000ms, 0409ms total)
T10C4 000:934 JLINK_WriteReg(R7, 0x00000000)  returns 0x00 (0000ms, 0409ms total)
T10C4 000:934 JLINK_WriteReg(R8, 0x00000000)  returns 0x00 (0000ms, 0409ms total)
T10C4 000:934 JLINK_WriteReg(R9, 0x100000B0)  returns 0x00 (0000ms, 0409ms total)
T10C4 000:934 JLINK_WriteReg(R10, 0x00000000)  returns 0x00 (0000ms, 0409ms total)
T10C4 000:934 JLINK_WriteReg(R11, 0x00000000)  returns 0x00 (0000ms, 0409ms total)
T10C4 000:934 JLINK_WriteReg(R12, 0x00000000)  returns 0x00 (0000ms, 0409ms total)
T10C4 000:934 JLINK_WriteReg(R13 (SP), 0x10004000)  returns 0x00 (0000ms, 0409ms total)
T10C4 000:934 JLINK_WriteReg(R14, 0x10000001)  returns 0x00 (0000ms, 0409ms total)
T10C4 000:934 JLINK_WriteReg(R15 (PC), 0x1000005E)  returns 0x00 (0000ms, 0409ms total)
T10C4 000:934 JLINK_WriteReg(XPSR, 0x01000000)  returns 0x00 (0000ms, 0409ms total)
T10C4 000:934 JLINK_WriteReg(MSP, 0x10004000)  returns 0x00 (0000ms, 0409ms total)
T10C4 000:934 JLINK_WriteReg(PSP, 0x10004000)  returns 0x00 (0000ms, 0409ms total)
T10C4 000:934 JLINK_WriteReg(CFBP, 0x00000000)  returns 0x00 (0000ms, 0409ms total)
T10C4 000:934 JLINK_SetBPEx(Addr = 0x10000000, Type = 0xFFFFFFF2)  returns 0x0000000D (0001ms, 0410ms total)
T10C4 000:935 JLINK_Go() -- CPU_WriteMem(4 bytes @ 0xE0002000) -- CPU_ReadMem(4 bytes @ 0xE0001000) (0004ms, 0414ms total)
T10C4 000:939 JLINK_IsHalted()  returns FALSE (0001ms, 0415ms total)
T10C4 000:941 JLINK_IsHalted()  returns FALSE (0001ms, 0415ms total)
T10C4 000:943 JLINK_IsHalted()  returns FALSE (0001ms, 0415ms total)
T10C4 000:945 JLINK_IsHalted()  returns FALSE (0001ms, 0415ms total)
T10C4 000:947 JLINK_IsHalted()  returns FALSE (0000ms, 0414ms total)
T10C4 000:948 JLINK_IsHalted()  returns FALSE (0001ms, 0415ms total)
T10C4 000:959 JLINK_IsHalted()  returns FALSE (0001ms, 0415ms total)
T10C4 000:961 JLINK_IsHalted()  returns FALSE (0001ms, 0415ms total)
T10C4 000:963 JLINK_IsHalted()  returns FALSE (0001ms, 0415ms total)
T10C4 000:965 JLINK_IsHalted()  returns FALSE (0000ms, 0414ms total)
